! Created Fri Oct 06 15:03:57 2006
# hz S ma R 50
! 2 Port Network Data from SP1.SP block
! freq  magS11  angS11  magS21  angS21  magS12  angS12  magS22  angS22  
!     
           100000     0.0316117395        -1.5168224       0.968460948      0.0323644256       0.968308472      0.0450099874      0.0315850439       -1.51810918
         30099500      0.030467795       -3.19812869       0.967454051      -0.381604141       0.968072696       -0.41930126      0.0303571086       -3.10834453
         60099000     0.0295027701       -5.90019104       0.967996818      -0.804292743       0.968298644      -0.847759884      0.0293983381       -5.42542305
         90098500     0.0300379953       -7.67888364       0.968465671       -1.25476005       0.967914367       -1.26788565      0.0299638104       -7.01064189
        120098000     0.0301275517       -11.3936906       0.966413024       -1.66939828        0.96682449       -1.65429906      0.0299555667       -10.8053014
        150097500     0.0316281174       -13.1963324       0.968249091       -2.11738878       0.967428865       -2.05613374      0.0312113887       -12.4606624
        180097000     0.0317119169       -16.6521049       0.968447124       -2.51411612       0.968242512       -2.55519072      0.0310401113       -15.7848087
        210096500     0.0321820159       -19.5373224       0.968037076       -2.95867248       0.968694207       -2.96176453      0.0311393038       -18.8003244
        240096000     0.0328862675       -21.3600559       0.968179198       -3.37779489       0.968055599       -3.37941388      0.0320226412       -20.8135622
        270095500     0.0339212856       -25.2714624        0.96755623       -3.81874293       0.967285327        -3.7943916      0.0337848256       -24.7563787
        300095000     0.0343554609       -27.8785909        0.96668605       -4.21905446       0.967813094       -4.11472047      0.0345549171       -26.7109299
        330094500     0.0349687281       -31.6610382       0.967492489       -4.58717134       0.966941532       -4.65645362       0.034598662       -30.1219701
        360094000      0.036022308       -32.0970719       0.966737353       -4.96727168       0.967236889       -5.05160084      0.0353719483       -30.9145096
        390093500     0.0366592095       -35.7256225       0.967181974       -5.39086595       0.967420935       -5.49972211      0.0365875842       -33.9688049
        420093000     0.0382508272       -37.9682216       0.965754206           -5.8519       0.966799903       -5.91642118      0.0387011385       -35.3729639
        450092500     0.0389411661        -40.544684        0.96630856       -6.28210502       0.966763316       -6.29553005      0.0391083866       -38.2491041
        480092000      0.039815993       -42.3914547       0.966853174       -6.65532815       0.966347738       -6.71287703       0.039731527       -40.1089521
        510091500     0.0411001962       -44.4873326       0.965532752       -7.11634895       0.965332235       -7.16349366      0.0413712207       -41.3952231
        540091000     0.0421204798       -46.8238642       0.965187445       -7.47478252        0.96512919       -7.54513865      0.0423316619       -43.3192251
        570090500     0.0441876681       -48.1051278       0.965960832       -7.98560292       0.967431834       -8.07607719      0.0442085136       -45.2688561
        600090000     0.0451493547       -51.0802096       0.966444904       -8.40637734       0.965831954       -8.36196581       0.045729021       -47.8983286
        630089500     0.0466233748       -53.4459309       0.965834034       -8.75070977       0.965239579        -8.8431821      0.0478151689        -49.617532
        660089000     0.0489169148       -55.5209361        0.96504001       -9.28940425       0.965554978       -9.31445234      0.0495180827       -52.0169034
        690088500     0.0503278604       -56.4475108       0.965975298       -9.63184628        0.96621469        -9.7472013      0.0507582175        -53.619345
        720088000     0.0514402803       -57.7632638       0.965150661       -10.1378378       0.966071554       -10.1166629      0.0526687641       -54.2491526
        750087500     0.0526933175       -60.9733576       0.965128468       -10.4718408       0.965447489       -10.5913483      0.0544937152        -56.497866
        780087000     0.0542159971        -62.504272        0.96606081       -10.8595895       0.965322993        -10.900459      0.0554530375       -58.6667701
        810086500     0.0561390567       -63.2438399        0.96475297       -11.3239133        0.96366718       -11.4128429      0.0577654997       -59.6456746
        840086000     0.0573441311       -65.9092863       0.964803681       -11.8579393       0.965495112       -11.8214065      0.0600513345       -61.3371246
        870085500     0.0600350533       -67.0385924       0.965426633       -12.2591013       0.964241611       -12.2583361       0.062726977       -61.8877197
        900085000     0.0631903047       -68.5950185       0.964565775       -12.6800135        0.96273421       -12.7002868      0.0648306409       -63.6271653
        930084500     0.0640854486       -70.4927406       0.963256359       -13.1026398       0.963454826       -13.1228005      0.0666607924       -65.4446769
        960084000     0.0649803161       -71.9881423       0.963211774       -13.5682014       0.963140765       -13.5808327      0.0683072723       -66.3120084
        990083500     0.0676548526       -75.2080613       0.962113944       -14.1214948       0.962898833       -14.0628905      0.0699619522       -68.8912268
    1.020083e+009     0.0708572457       -75.4789067       0.963517454       -14.4334027       0.962904618       -14.5516006      0.0728859168       -69.7797841
   1.0500825e+009     0.0728628446       -76.1538913        0.96341778       -14.8734258       0.963131935       -14.8895329      0.0760236259       -70.6879423
    1.080082e+009     0.0746812967       -79.1082763       0.962305705       -15.3552794        0.96194865       -15.4173415       0.078032689       -72.4089042
   1.1100815e+009      0.076235116       -79.8368853       0.961686995        -15.704202       0.961074616       -15.8006845      0.0789638886       -72.9352246
    1.140081e+009     0.0806493443       -81.1184089       0.962846094       -16.2523116       0.961515919       -16.3529235      0.0830709921       -75.0504554
   1.1700805e+009     0.0823532157       -82.6021797       0.959840821       -16.7097935       0.961164035       -16.7139525      0.0859241906       -75.9397582
     1.20008e+009     0.0837823172       -83.7070325       0.961608214       -17.1142224       0.961727612       -17.2120479      0.0879074913       -76.1615377
   1.2300795e+009     0.0864667469       -85.8384345       0.960160544       -17.6157127       0.960602941       -17.6000331      0.0891706838       -78.5651963
    1.260079e+009      0.089513962       -85.7633006       0.959950244       -18.1556032       0.961388772       -18.0824581      0.0929500679        -78.839256
   1.2900785e+009     0.0917319946       -87.5263872       0.961384128        -18.613848        0.95836856       -18.5941549      0.0960684193       -79.8327374
    1.320078e+009     0.0938993243       -90.0638227       0.960669487       -19.0714235       0.960414181       -19.0606363      0.0976418041        -81.602879
   1.3500775e+009     0.0985866697       -90.5385607       0.960842499       -19.4424988       0.958701708       -19.3580023       0.101993043       -82.6529684
    1.380077e+009     0.0999723225       -90.8042334       0.959943325       -19.9491579       0.959403011       -19.9612935       0.104132429       -82.8716862
   1.4100765e+009       0.10135065       -92.1938993       0.960183289       -20.2959978       0.960763913       -20.2669928       0.106032112       -82.9809971
    1.440076e+009      0.106947856       -94.0520592       0.957762693        -20.865689       0.957388886        -20.880845       0.111160509       -85.0522903
   1.4700755e+009      0.109063238       -94.6098068       0.957759009       -21.2917492       0.957671635       -21.3533765       0.112915174       -86.2618745
    1.500075e+009      0.111939171       -95.5834521       0.957281549       -21.8059681       0.956931533       -21.8391148       0.116624755       -86.6548878
   1.5300745e+009       0.11353891       -97.5763042       0.957138275        -22.154522       0.956271508       -22.2509216       0.118347294       -87.6131719
    1.560074e+009      0.117220259       -98.6720963       0.956137943       -22.6861259       0.955994186       -22.6923818       0.121249755       -89.0468351
   1.5900735e+009      0.121486402       -99.4311314       0.954964984       -23.1446613       0.954814814       -23.1589011       0.125828124        -89.887561
    1.620073e+009      0.122893278       -100.989031       0.951344495       -23.7949369       0.955417658       -23.7617081       0.127942169       -90.4379716
   1.6500725e+009      0.126912842       -101.552507       0.955536801       -24.2214201       0.955768154       -24.1438828        0.13190921       -90.4202426
    1.680072e+009      0.130026533       -102.840173       0.952243093       -24.5461289       0.954118948       -24.7917446       0.134926889        -92.286166
   1.7100715e+009      0.132569283       -103.138464       0.952974679       -25.1649714       0.954461657       -25.1474764       0.138153937        -92.277005
    1.740071e+009      0.137469564       -104.469093       0.952937675       -25.5084132       0.949489255        -25.644352       0.142920859       -92.5374703
   1.7700705e+009      0.140837136       -105.676513        0.95253816        -26.273888       0.953555347       -26.2839574       0.146476438        -93.865651
     1.80007e+009      0.144401875       -105.827371       0.952124418       -26.5603738       0.948781031       -26.7749432       0.149355395        -94.342058
   1.8300695e+009      0.146341323        -107.82464       0.951197073       -27.2173675       0.950744061       -27.2419331       0.152027798       -95.2593989
    1.860069e+009      0.154748961       -110.413534       0.951202587       -27.8406078       0.950961719       -27.7243276       0.160084184       -97.2864856
   1.8900685e+009      0.152484977       -112.209268       0.944649689       -28.1319013       0.947950793        -28.215054       0.156446325       -98.9560886
    1.920068e+009      0.154819342       -112.113534       0.946936802       -28.6807806       0.948665201       -28.6586328       0.160089322       -98.5524684
   1.9500675e+009      0.157556485       -112.976383       0.946863138       -29.2070988       0.945516718       -29.2367927       0.164129954       -98.4331506
    1.980067e+009      0.162759083        -114.50444        0.94653983       -29.7445792       0.947594737       -29.7872866       0.167799594       -99.6984046
   2.0100665e+009      0.166598415       -114.365513       0.945312556       -30.0947692        0.94262159       -30.1132857       0.172291315       -99.6826203
    2.040066e+009      0.169183864       -115.952219       0.943551399       -30.8184796       0.943268842       -30.8670718       0.175087883       -100.917401
   2.0700655e+009      0.171095268       -117.576693       0.942430063       -31.3504926       0.943773244       -31.1827016       0.177519571       -101.063592
    2.100065e+009      0.175525572       -118.413196       0.940720493       -31.8857316       0.941991179       -31.9067235       0.181290623       -101.550019
   2.1300645e+009      0.179049917        -118.82447       0.939777333       -32.3095634       0.942195204       -32.1927523       0.185052407       -102.390699
    2.160064e+009      0.180042298        -119.98649       0.938187213       -32.9301782       0.941008855       -32.9624482       0.187371498       -102.665315
   2.1900635e+009      0.186015506        -121.45438       0.936763564       -33.4038195       0.939146549       -33.4213037       0.194105457       -103.233874
    2.220063e+009      0.190151877       -121.700843       0.937115177       -33.8546182       0.937753857       -33.8586745       0.196888097       -103.512516
   2.2500625e+009      0.193870738       -123.067315       0.937807233       -34.4102568       0.936966202       -34.6283567       0.200688383       -104.746422
    2.280062e+009      0.195628679       -124.002498       0.934847424       -35.0718457       0.935689483       -35.0775668       0.204945075       -104.771544
   2.3100615e+009      0.200540711       -125.554934       0.934218664       -35.6461957       0.934271672       -35.5783128       0.208830588       -105.394964
    2.340061e+009      0.205667545       -125.903065         0.9343833       -36.2093218       0.934124829       -36.2177396       0.213322368       -105.985143
   2.3700605e+009      0.206647141       -127.076045       0.929424373       -36.8039013       0.929479693       -36.6856143       0.215558274       -106.947589
     2.40006e+009      0.210447288       -128.396573       0.927587459       -37.3888122       0.931025734       -37.2986022       0.221835963       -107.190398
   2.4300595e+009      0.215200998       -129.374934       0.926780498       -37.8382666       0.930357279       -37.9500146       0.225643643       -107.522587
    2.460059e+009      0.220245956        -129.68584       0.927381362        -38.399451       0.927189419       -38.5351671       0.230721105       -108.239458
   2.4900585e+009      0.222814816       -130.649402       0.924771114       -38.9273534       0.926788206        -38.961861       0.235181009       -108.717973
    2.520058e+009      0.225638649       -132.355009         0.9244406       -39.6649946       0.924318229       -39.7277078       0.239288042       -109.297406
   2.5500575e+009      0.232304778       -132.910051       0.921905231       -40.1560584       0.922070317       -40.2305747       0.244596218       -109.896523
    2.580057e+009      0.235756901       -133.723579       0.921703738       -40.8261788       0.919657312       -40.7114365       0.249036432       -110.595761
   2.6100565e+009      0.238228433       -134.678266       0.918193813       -41.4134309       0.919911196       -41.4750748        0.25450044       -111.110796
    2.640056e+009      0.242359073       -136.131567       0.913926701       -42.0522242       0.916883613       -41.9680499       0.258225878       -111.390806
   2.6700555e+009      0.248835044       -136.987615       0.916222471       -42.6983229       0.915666564       -42.7754906       0.262814376       -112.266449
    2.700055e+009      0.251899478        -137.33337       0.908525816       -43.1977109       0.912469158       -43.3155241       0.268805201       -113.070713
   2.7300545e+009      0.255427067       -138.601035       0.911145115       -43.6992132       0.911714181       -43.8742005       0.274934735       -113.426606
    2.760054e+009      0.260199242       -139.559427       0.908415431       -44.2997383       0.909169482       -44.6090692       0.279509916       -113.752854
   2.7900535e+009      0.265905163       -140.307887       0.904542825       -44.9660402       0.903792582       -45.1672077       0.285240193       -114.986189
    2.820053e+009      0.268653748       -140.971686         0.9044656       -45.5207242        0.90460117       -45.7013481       0.290191908       -115.466997
   2.8500525e+009      0.272447412       -142.510005       0.899981166       -46.2223184       0.901419968        -46.268425       0.295182814       -116.021958
    2.880052e+009      0.278944011       -143.500747        0.89858452       -46.8930308       0.898181056       -46.9462596       0.300441674       -116.775606
   2.9100515e+009      0.282313289        -143.96738       0.894782039       -47.5606777       0.897943386       -47.6266488       0.305260983        -117.63409
    2.940051e+009      0.285540288       -144.654661       0.891383002       -48.2051469       0.893142806        -48.278922       0.312664969       -118.009223
   2.9700505e+009      0.290267486       -146.258516       0.890985292       -48.6508659       0.890497882       -48.8433426       0.316301805       -118.660773
     3.00005e+009      0.296297802       -146.391593       0.886491864       -49.4593565       0.886428331        -49.545864       0.323350148       -119.126249
   3.0300495e+009      0.300335234       -147.342983       0.882044677       -50.0320723        0.88328045       -50.1643762       0.329410884        -120.46916
    3.060049e+009       0.30419194       -148.650852       0.883520962       -50.6622173       0.884630007       -50.9118017       0.334841938       -120.907609
   3.0900485e+009      0.309159306       -149.757269       0.878051686       -51.3265681       0.879010122        -51.390226       0.341016067       -121.525899
    3.120048e+009      0.313103972        -150.31036       0.875338511       -51.8436026       0.875462462       -52.0479029       0.344937707       -122.452196
   3.1500475e+009        0.3180109       -150.833332       0.873943742       -52.6301582        0.87432355       -52.7881264       0.353058492       -123.133606
    3.180047e+009      0.322449634       -152.491987        0.86928933       -53.2062007       0.873839584       -53.4460535       0.358523481       -123.891901
   3.2100465e+009      0.326635267       -153.048282        0.86424153       -53.9901479       0.864426609       -54.1199405       0.363001043       -124.451543
    3.240046e+009      0.331386884       -153.801611       0.862000419       -54.6892399       0.862516497        -54.945962       0.369694975       -125.547095
   3.2700455e+009      0.334611709       -154.641914       0.857631233       -55.1812706       0.857617939       -55.3686935       0.376200253       -125.956157
    3.300045e+009       0.34074119        -155.69939       0.854681103       -55.9653221        0.85520905        -56.165357       0.384161106       -126.723509
   3.3300445e+009      0.345192916       -156.661837       0.852408121       -56.6067761       0.851541582       -56.7824476       0.387683532        -127.59305
    3.360044e+009      0.349040637       -157.161611       0.847569222       -57.2632522       0.847923342       -57.5211068       0.395383711       -128.459838
   3.3900435e+009      0.352945862       -158.256887       0.842802446       -57.9239202       0.841864076       -58.0564488       0.401666296       -128.903025
    3.420043e+009       0.35803978        -159.57357       0.842603344       -58.7999771       0.841077236       -58.8944906       0.408145591       -129.630676
   3.4500425e+009      0.364212692       -160.069706       0.835216055       -59.4820993       0.832995095       -59.5425888       0.414986861       -130.656765
    3.480042e+009      0.367423191       -161.112317       0.833322513       -59.9707254       0.830828676       -60.1117606       0.420751374       -131.515154
   3.5100415e+009      0.372498583       -162.497144       0.827728801       -60.7671441       0.826543097       -60.9219854       0.427533153       -132.032895
    3.540041e+009      0.377119881       -163.396617       0.821888443        -61.513555       0.818880631       -61.4824084       0.433671964       -132.645305
   3.5700405e+009      0.381092281       -164.042216       0.819671404        -62.433336       0.818245514       -62.3128103       0.438693124       -133.630893
     3.60004e+009      0.386657082       -165.228198       0.814287361       -62.8996468       0.810393844       -62.9385538       0.446842895       -134.488352
   3.6300395e+009      0.390700105       -166.515633       0.807819771       -63.6575535       0.805610307       -63.5839914       0.452215661       -135.101405
