! Created Fri Oct 06 14:58:36 2006
# hz S ma R 50
! 2 Port Network Data from SP1.SP block
! freq  magS11  angS11  magS21  angS21  magS12  angS12  magS22  angS22  
!     
           100000     0.0337790459       -2.30909353    2.3799024e-005       -37.4917562   7.64792504e-005       -83.1165587       0.787476126       -179.936132
         30099500     0.0322816035       -3.07278472   6.36084042e-005       -106.210495   7.15236322e-005       -98.9742161       0.788457292        179.507796
         60099000     0.0328460469       -5.83523563    0.000156575464       -106.924482    0.000156768693       -108.011646       0.788911543         179.02799
         90098500     0.0330383459       -8.95850478     0.00024684229       -128.179699    0.000221920222       -115.900587       0.788494236         178.49378
        120098000     0.0335165476       -12.3865158    0.000324881936       -125.687459    0.000314300105       -121.246504        0.78660973        178.091879
        150097500      0.034165324       -15.2685886    0.000472140908       -131.571577    0.000501489439       -131.054579       0.786514794        177.589413
        180097000     0.0345430589       -17.9630546    0.000657540724       -138.016688     0.00062817746       -131.482578       0.786519438        177.187362
        210096500     0.0349609004       -21.2749852    0.000824548434       -141.085386    0.000845135917       -140.983584         0.7872851        176.686747
        240096000     0.0356362322       -23.8909427     0.00102427671       -145.411353     0.00101287919       -146.033312       0.785537606        176.159342
        270095500     0.0360567675       -26.5143246     0.00129151546       -150.334345     0.00128181364        -150.10397       0.784942493        175.769916
        300095000     0.0364442577       -29.5139413     0.00153405265       -153.636141     0.00154269108       -151.926022       0.785361675        175.351644
        330094500     0.0372824557       -32.3775531     0.00186171377        -155.49378     0.00187214597       -155.546996       0.784913353         174.87831
        360094000     0.0380900346       -34.4844121      0.0021725844       -157.988652     0.00219650122       -158.358708       0.784040631        174.381697
        390093500     0.0385874735       -36.6452944     0.00251251419       -160.725763     0.00252891709       -160.386893       0.784889083        174.002683
        420093000     0.0390452857         -39.47435     0.00285724184       -163.293364     0.00288912032       -163.235464       0.783427911        173.561717
        450092500     0.0401430639       -41.6135392     0.00324909832       -164.503952     0.00331245965       -164.713032       0.782658651        173.051737
        480092000     0.0408152493       -43.2150808     0.00372664251       -166.687098     0.00370713866       -166.509786       0.783713136        172.645886
        510091500     0.0413432395       -45.2941812     0.00422293312       -168.656409     0.00419470489        -168.60794       0.782393801        172.113792
        540091000     0.0424171299       -47.5856174      0.0046730946        -169.66186     0.00470002713       -170.033534        0.78223424        171.647632
        570090500     0.0435549214       -49.0632992      0.0051739847       -171.136097     0.00518338019       -172.161926       0.782643432        171.234926
        600090000     0.0443061262       -50.4712702     0.00574176714       -172.518316      0.0057392864        -172.23262       0.782852344        170.850514
        630089500     0.0450762842       -52.3001366     0.00623944959       -174.096025     0.00624903001       -173.817357       0.781697437        170.379081
        660089000     0.0463951916       -53.8431432     0.00684793403       -175.047447     0.00690486573       -175.731117       0.781627157        169.892867
        690088500      0.047613832       -54.8180668     0.00754676537       -176.162639     0.00755078618       -176.437998       0.780955147        169.546726
        720088000     0.0485127812       -55.8691202     0.00816198367        -177.39032     0.00818775487       -177.159456       0.781259945        169.033914
        750087500     0.0496645826       -57.3310816     0.00883028161       -178.576598     0.00888732098       -178.913763       0.781549213        168.490199
        780087000     0.0512055872       -58.2600147     0.00958780761       -179.751326     0.00960548086       -179.149716       0.781660176         168.24726
        810086500     0.0526146556       -58.6874768      0.0103931839        179.525375      0.0103415771        179.528131       0.779528298        167.741199
        840086000     0.0536499881       -59.7488306      0.0110516678        178.519811      0.0111497892        178.342634       0.778582065        167.305681
        870085500     0.0552427912       -60.8015704      0.0118830894        177.436373      0.0118847988        177.530138       0.779109091        166.977421
        900085000     0.0572460819       -61.4744563       0.012676013        176.537779      0.0127784385        176.778247       0.776641276        166.443924
        930084500     0.0587452782        -61.895179      0.0135330613        176.055452      0.0135344142        175.968789       0.777425807        166.074687
        960084000     0.0599626027       -62.7719902      0.0144312149        175.397241      0.0145375379        175.282477       0.777830874        165.495203
        990083500     0.0621266892       -63.8578758      0.0154503163        174.352681      0.0155428125        174.604982       0.778562687        165.012332
    1.020083e+009      0.064511067        -64.035537      0.0162859993        173.651335      0.0165119876        173.439781        0.77651088        164.725916
   1.0500825e+009     0.0660459902       -64.2447022      0.0174335674        172.988266      0.0174800389        172.506362       0.776668334        164.338927
    1.080082e+009     0.0679054259       -65.2606937      0.0184464437        171.825171       0.018491843        171.470041       0.775795391        163.904416
   1.1100815e+009     0.0705375251       -66.0028312      0.0194103492        170.853469      0.0195079479        170.953654       0.775580728        163.415825
    1.140081e+009     0.0733245081       -66.1348654      0.0205340112        170.196394      0.0206540357        170.181271       0.774625463        163.002346
   1.1700805e+009     0.0751627357       -66.6408497      0.0216094174        169.657936      0.0217189886        169.197425       0.773549053        162.594651
     1.20008e+009     0.0775454438       -67.6979407      0.0228158118        168.753382      0.0228760256        168.544611       0.773184209        162.149688
   1.2300795e+009     0.0810598688       -68.1337428      0.0239949174        167.958668      0.0240753258        168.113198       0.773819049        161.697384
    1.260079e+009     0.0835731537       -68.2106869      0.0251964447        167.166699      0.0254120251        166.983333       0.772806383        161.221476
   1.2900785e+009      0.085712924       -69.0592317      0.0265261909         166.75338      0.0265294016        166.438681       0.771275369        160.892345
    1.320078e+009     0.0892214166       -70.2092756      0.0278725265        165.673701      0.0278729031        165.673813       0.773191726        160.394608
   1.3500775e+009     0.0931285898       -70.5864233      0.0291730554        164.957323      0.0293177087        164.999319       0.772148582           160.163
    1.380077e+009     0.0955998632        -70.893969      0.0304650344        164.230009      0.0305835505        163.856622       0.770965271         159.60221
   1.4100765e+009     0.0985100555       -72.2224566      0.0318188942        163.295983      0.0320901017        163.025854       0.770767861        159.168015
    1.440076e+009      0.103090425       -73.2104205      0.0331717013        162.528342      0.0333095198        162.611166       0.769315119        158.847767
   1.4700755e+009      0.107110792       -73.3205676      0.0347018382        161.917134      0.0347206161        161.535669       0.769556543        158.424193
    1.500075e+009      0.109656857       -74.0078609      0.0361197861        161.207289      0.0361529978        160.843258        0.76782721        157.975745
   1.5300745e+009      0.113386472       -75.4683774      0.0375754918        160.589174      0.0377307446         160.24768       0.768839433        157.532256
    1.560074e+009      0.118379805       -76.1813504      0.0391650838         159.76866      0.0394374491        159.441394       0.769101423        157.186798
   1.5900735e+009      0.122124171       -76.5490502      0.0407247781        159.166519      0.0406983643        158.890973       0.766391932        156.822543
    1.620073e+009        0.1248426       -77.6977814      0.0422041675        158.359701      0.0424944618        157.964105       0.765824286         156.27929
   1.6500725e+009      0.129779302       -78.9394851      0.0437830413        157.472931      0.0440936099         157.37448       0.766134262        155.963235
    1.680072e+009      0.134770593       -79.6722405      0.0455157179        156.994654      0.0456413712        156.439686       0.765944897        155.558023
   1.7100715e+009      0.138105472       -80.3317228      0.0472312335        156.236954      0.0473669829        155.886569       0.765087137        155.040662
    1.740071e+009      0.141840509       -81.9216032      0.0489320164        155.630976      0.0488024824        155.084926       0.760345965        154.885865
   1.7700705e+009      0.147788601        -83.074808      0.0507281556        154.616958      0.0508241787        154.160118       0.761580827        154.026606
     1.80007e+009      0.153061222       -83.7663281      0.0525995303          153.9374      0.0524310311        153.762469       0.758468224        153.962412
   1.8300695e+009      0.156536057       -85.3612031      0.0544026239         153.11256      0.0544150165        152.766605       0.759408268        153.372411
    1.860069e+009      0.156946854       -88.5787806      0.0557759758        152.571933      0.0561445094        152.506555       0.765127036        153.477981
   1.8900685e+009       0.16031337       -87.5825676      0.0580329811        151.974745      0.0582259115        151.610679       0.762222372         152.48173
    1.920068e+009      0.165715762       -87.7171089      0.0599691204        151.112749      0.0600770295        150.941767        0.76198553        151.917105
   1.9500675e+009       0.16992225       -88.8298742       0.061899342        150.367481      0.0619919519          150.0734       0.758474046        151.513422
    1.980067e+009      0.175206817       -90.0682307      0.0638511035        149.720337      0.0639923021        149.104731       0.757550098        150.895119
   2.0100665e+009      0.180672274       -91.1015808        0.06574246        148.949562      0.0654314283        148.707099       0.755724817        150.728685
    2.040066e+009      0.184125292        -92.108368      0.0675977259        148.129054       0.067598556        148.003708       0.755274376        150.066761
   2.0700655e+009      0.189142308       -93.4842712      0.0696669103         147.43275      0.0698236425        147.319192       0.754659214        149.672574
    2.100065e+009      0.194537006       -94.7819179      0.0717608787        146.815074      0.0717154744        146.632351       0.752451081        149.174488
   2.1300645e+009      0.197832596       -95.6718542      0.0737594893        146.077335      0.0739051562        146.098194        0.75383805        148.640111
    2.160064e+009      0.201868297       -96.7378064       0.075845549        145.309157      0.0761148482        145.187086       0.751932942        148.109869
   2.1900635e+009      0.206493282       -97.9486358       0.078078209         144.94266       0.078208811        144.460914       0.749534642          147.6702
    2.220063e+009      0.211664031       -99.2146031      0.0806321153        144.151145      0.0801859328        143.802605       0.748028713        147.237724
   2.2500625e+009      0.215722439        -100.15544      0.0828374807        143.412101      0.0822988469        143.241001       0.746621853        146.694557
    2.280062e+009      0.218769495       -101.468217      0.0848510784        142.762832      0.0846588335        142.580165       0.745892108        146.318679
   2.3100615e+009      0.223345933       -102.782734      0.0874537214        142.137723       0.087074919        141.985704       0.744330102        145.867867
    2.340061e+009      0.229104562       -103.866213      0.0894336911        141.164426      0.0892459554        141.254016       0.744802275        145.194732
   2.3700605e+009      0.232684967       -104.564699      0.0918160263        140.496375      0.0919651811        140.734764       0.743311143        144.666949
     2.40006e+009      0.234766592       -105.988503      0.0941562982        139.988748      0.0943497069        139.797631       0.741626538        144.254285
   2.4300595e+009      0.240595221        -107.29635       0.096665251        139.271136      0.0966685915        139.057663       0.739869365        143.759905
    2.460059e+009      0.245437892       -107.877345      0.0992277685        138.587724       0.099026649        138.512552       0.739220829         143.01235
   2.4900585e+009      0.248382651       -108.765776       0.101706079        137.929057        0.10153905         137.73771       0.737311594        142.725322
    2.520058e+009      0.251849217       -110.082387       0.104447206        137.156407       0.104054399        137.055542        0.73793928        142.121491
   2.5500575e+009      0.257853763        -111.29554       0.106804498        136.486882       0.106221831        136.348306       0.734179247         141.60667
    2.580057e+009      0.261510971       -111.787707       0.109543008        135.779737       0.109119019        136.111731       0.734873266        141.299497
   2.6100565e+009      0.263807526       -112.863293       0.111650706        135.179771       0.111960356        135.069238       0.733898902        140.585748
    2.640056e+009      0.267706542       -114.159634       0.114430038        134.580594       0.114386255        134.628508       0.730107101        140.098435
   2.6700555e+009      0.273520781       -114.878711       0.117148759         133.76229       0.117185382        133.945749       0.730285145         139.48716
    2.700055e+009      0.277506062       -115.421222       0.119567034        133.337495        0.12021907        133.118747       0.727933179        138.987639
   2.7300545e+009      0.279541899       -116.524308         0.1231558        132.744317       0.122579781        132.615298       0.726178449        138.639348
    2.760054e+009      0.285409164       -117.660155       0.126107719        131.885665       0.125435234        131.884886        0.72243747        137.956391
   2.7900535e+009      0.290445162       -118.165972       0.128621098        131.380336       0.128153248         131.19177       0.721834217        137.422559
    2.820053e+009      0.292821829       -118.633574         0.1318976        130.719436        0.13115748        130.651856       0.721267867        137.039658
   2.8500525e+009      0.296007154        -119.82681       0.134638928        130.022129        0.13448082        130.080816       0.719280591        136.490117
    2.880052e+009      0.301635958       -120.816844       0.137631791         129.30157        0.13775935        129.370741       0.719176816        135.873657
   2.9100515e+009      0.305870977       -120.957553       0.140721421        128.635803       0.140662771        128.600381       0.715244721        135.161966
    2.940051e+009       0.30775715       -121.741044       0.143812029        128.054625       0.143811463        128.054192       0.713007519        134.905438
   2.9700505e+009      0.312787694       -122.536796       0.147820412        127.380092       0.147486499        127.125605       0.713429361        134.257614
     3.00005e+009      0.318826573        -123.21973       0.150120351        126.682421       0.150035822        126.608565       0.708080532        133.914881
   3.0300495e+009      0.322006118       -123.289412       0.153655796        126.349818       0.153325942        126.019206        0.70991646        133.340194
    3.060049e+009      0.324967899       -124.004651       0.158398998        125.380938       0.157210596        125.271492       0.704525581        132.709797
   3.0900485e+009      0.330648943       -125.059586       0.160937083        124.638516       0.160984604        124.710546       0.702267201        132.401582
    3.120048e+009      0.336650219       -125.259418       0.164484937        124.266833       0.164252201        123.797956       0.700725197        131.658714
   3.1500475e+009      0.339997615       -125.573465       0.169230923        123.300582       0.168212236        123.410702       0.697331137         131.48024
    3.180047e+009      0.343147459       -126.404891       0.172259812         122.52573       0.173328359        122.620848       0.699066401         130.95281
   3.2100465e+009      0.349411608       -127.020325       0.175517856        121.796069       0.175529806        121.542615        0.69016834        130.277677
    3.240046e+009      0.355336322       -127.128087       0.180713599        120.992742       0.179664624        120.967119       0.690596598        129.939813
   3.2700455e+009      0.358176439       -127.445616       0.183697137        120.267981        0.18363863        120.397485       0.689170166        129.551474
    3.300045e+009      0.363113712       -128.390427       0.187975568          119.4741       0.188060305        119.348854       0.683892616        129.054292
   3.3300445e+009      0.369850686       -128.698282        0.19236558        118.573693       0.192252869        118.694749       0.683593887        128.434353
    3.360044e+009      0.376337376       -128.882323       0.197050267        117.808603       0.195884428        117.854886       0.679166587        128.170579
   3.3900435e+009      0.379309282       -129.424414       0.200462195        116.983662       0.200060564        117.261433       0.674469636        127.875455
    3.420043e+009      0.385750668       -130.107443       0.206019509        115.996558       0.205786809        116.128101       0.673045291        127.099839
   3.4500425e+009      0.391758835       -130.567971       0.208638119        115.343458       0.208687485        115.318862       0.669359557        126.749215
    3.480042e+009      0.397455255       -130.695344       0.215326304        114.412928       0.213285198        114.727917       0.667597463        126.467219
   3.5100415e+009      0.402416135       -131.533035       0.218884546        113.413902       0.218248128        113.633297       0.662096425        126.113465
    3.540041e+009       0.40985587       -132.148423       0.222485832        112.821091       0.223171998        112.617176       0.657386302         125.67619
   3.5700405e+009       0.41752688       -132.370328       0.229178472        111.402603       0.227698237        111.779273       0.655360933        124.849461
     3.60004e+009      0.421497672       -132.806601       0.232513699        110.772823       0.233214292        110.967007       0.652779456        124.823198
   3.6300395e+009      0.428607194        -133.65695       0.237031009        109.610872       0.237674096        109.812385       0.646931428        124.320671
