! Created Fri Oct 06 15:00:47 2006
# hz S ma R 50
! 2 Port Network Data from SP1.SP block
! freq  magS11  angS11  magS21  angS21  magS12  angS12  magS22  angS22  
!     
           100000     0.0318234567       -1.97569824       0.968095765      0.0684653236       0.968492314      0.0558005294      0.0318496224       -1.94660205
         30099500     0.0303226043       -3.54248316       0.967758786      -0.380580439       0.968230372      -0.393434655       0.030433983       -3.52582049
         60099000     0.0292696847       -6.65426306       0.968192848      -0.810223443       0.968502138      -0.795327162      0.0296825305       -6.31489748
         90098500     0.0298473054       -9.17496494       0.968502093       -1.26727833       0.967831893       -1.26141803      0.0303929709       -8.42087423
        120098000     0.0300541086       -13.3025314       0.966983737       -1.66320876       0.967271396       -1.67221441      0.0304102754       -12.3398154
        150097500     0.0316082081       -15.1827535       0.967959887       -2.09227345       0.967619847       -2.07555407      0.0316986811       -14.1461232
        180097000      0.031577847       -18.8943745       0.967870613       -2.44723993        0.96824646        -2.5086744       0.031766895       -17.6411642
        210096500     0.0320252768       -22.2546801       0.967801722       -2.92688418       0.968611972       -2.94192449      0.0321635529       -20.8709868
        240096000     0.0330444037       -24.0410082       0.967406945       -3.31917702       0.968545978       -3.34042284      0.0328732727        -22.901336
        270095500     0.0344515384       -27.7592094       0.967657836       -3.76054963       0.967516864       -3.74227765       0.034440462       -26.9415368
        300095000     0.0351396831       -30.8744815        0.96762421       -4.20843826       0.967617965       -4.06102619      0.0354082079       -29.4570389
        330094500     0.0356194846       -35.3853153       0.967293931       -4.59037543       0.967197045       -4.54261424       0.036150374       -32.9467531
        360094000     0.0366417814       -35.9342551       0.966646928       -4.97559566       0.967778805       -4.95090199      0.0371040405       -33.8061269
        390093500      0.037504209       -39.8813337        0.96738327       -5.39077274       0.967146455       -5.38638613      0.0384649341       -36.9822338
        420093000     0.0393362311       -42.5210525       0.965967306       -5.83446167       0.967062096       -5.85379225      0.0408428668        -38.490887
        450092500     0.0400761392       -45.1382201       0.966835327       -6.19856478       0.966831985       -6.19599085      0.0416367795       -41.0595955
        480092000     0.0408835435       -46.7396205       0.966258062        -6.6148462       0.966685589       -6.64791992      0.0425193825       -42.5774367
        510091500       0.04211748       -49.0232743       0.966321235       -7.05756483       0.966068792       -7.10261282      0.0444303716       -43.5828239
        540091000      0.043352111       -51.6696592       0.965624526       -7.44946356       0.965719934       -7.52947154      0.0456794449       -45.6425736
        570090500     0.0456091071       -52.8827357       0.966159388       -7.87990617       0.967760606       -7.99108675      0.0476628056       -47.6180579
        600090000     0.0467897388       -55.7752354       0.966828016       -8.32367151       0.967105553       -8.30495685      0.0493549387       -49.9979099
        630089500     0.0483833086       -58.2515465       0.965349863       -8.71158325       0.965380196       -8.76330199      0.0517221925       -51.5204714
        660089000     0.0508279228       -60.3960205       0.965519956       -9.16667251       0.965564446       -9.23101971      0.0539381639       -53.6588884
        690088500     0.0523137075        -61.271567       0.965233436       -9.57198003       0.965967647       -9.66841666      0.0552576054       -55.0509074
        720088000     0.0533852403       -62.6087026       0.965985259       -10.0357776       0.965546033       -10.0924264      0.0572818111       -55.6890124
        750087500     0.0550437461       -65.8234336       0.965802696       -10.4455022       0.965828245       -10.4883776      0.0594727651       -57.7963779
        780087000     0.0569338258       -67.4821777        0.96636615        -10.763943       0.966934223       -10.8274453      0.0607467618       -59.9434321
        810086500     0.0588384132       -68.0176226       0.964633448       -11.2194456       0.963749202       -11.3435618       0.062986617       -60.9228839
        840086000     0.0600146532        -70.764411        0.96463905       -11.7015645       0.966188353        -11.696554      0.0656665063       -62.1699585
        870085500     0.0629568339       -71.8883307       0.965257005       -12.1749603       0.964425448        -12.161044         0.0687346       -62.7570193
        900085000      0.066480391       -73.3308897       0.964796264        -12.588169       0.963544332       -12.6142739      0.0709475666       -64.4875025
        930084500     0.0676060355       -75.1222294       0.963652132       -12.9907455       0.962813758       -13.0049402      0.0730065273       -66.1774233
        960084000     0.0683934732       -76.8592654       0.963586342       -13.4569159       0.962761565       -13.5160838      0.0750012169       -66.7987195
        990083500     0.0713357119       -79.8904701       0.964047776       -13.9545355       0.963163034        -13.948655      0.0771666486       -69.3326338
    1.020083e+009     0.0748074513        -79.960537       0.963582978       -14.3251296       0.963463333       -14.4473999      0.0801857593       -70.1185489
   1.0500825e+009     0.0769188528       -80.6747518       0.962982101       -14.7759488       0.964353806       -14.8196634      0.0835841317       -70.8321321
    1.080082e+009     0.0789369911       -83.6553478       0.962799206       -15.1831059       0.962304096       -15.2535997      0.0860120301       -72.2088992
   1.1100815e+009     0.0806089157       -84.2714923       0.961498765       -15.5547233       0.961591215       -15.6774596      0.0869015941       -72.8139961
    1.140081e+009     0.0851173266       -85.1723636       0.963399014       -16.1157692       0.961339566       -16.2190755      0.0910668975       -74.9037152
   1.1700805e+009     0.0871104702       -86.6331666       0.960768405       -16.5611583       0.961589883       -16.5935971       0.094205432       -75.5979697
     1.20008e+009     0.0888465887       -87.8633725       0.961795553         -17.00468       0.961238184         -17.11314      0.0967170983       -75.7682062
   1.2300795e+009     0.0919347176       -89.8345084       0.961005263       -17.4380728       0.960116922       -17.4903548       0.098106521       -77.9550685
    1.260079e+009     0.0948105432       -89.6701129       0.960731218       -17.9470084       0.960726784       -17.9417476       0.102232696       -78.1733161
   1.2900785e+009     0.0971471393       -91.3949327       0.960721043       -18.4524971       0.959043326       -18.4342382       0.105749699       -78.9889706
    1.320078e+009     0.0997890569       -93.9902233       0.961487495       -18.9098063       0.960447304       -18.9068567       0.107409756       -80.6795731
   1.3500775e+009      0.104696639       -94.1423959       0.959788326       -19.3079655        0.95795973       -19.1727994       0.111790601       -81.6882528
    1.380077e+009        0.1059824       -94.5673271       0.959158076       -19.8173874       0.958951952       -19.8319524       0.114171595       -81.9269227
   1.4100765e+009      0.107231457       -96.2948721       0.958978608        -20.181794       0.960883939       -20.1784122        0.11661962       -81.8061607
    1.440076e+009      0.113372857       -97.9259423       0.957366499       -20.6855931       0.956828534       -20.7047716        0.12163126       -83.5839014
   1.4700755e+009      0.115304849        -98.255772       0.956718023       -21.1297593        0.95710806        -21.165616       0.123602959       -84.8856117
    1.500075e+009      0.118264006       -99.1863915       0.957695747         -21.65185       0.955885819       -21.6485855        0.12768934       -85.2471194
   1.5300745e+009      0.120368959       -101.415997       0.957186259        -21.993206       0.957356437       -22.0339613       0.130419407       -86.0005477
    1.560074e+009      0.124513142       -102.362898       0.955683832       -22.4670111        0.95548127       -22.5184545       0.133003403       -87.2966445
   1.5900735e+009      0.128691312       -102.955998       0.954259998       -22.9467514       0.953934707       -22.9522981       0.137730025       -88.1991016
    1.620073e+009      0.130085761        -104.64974       0.950487128       -23.4582312       0.954786889       -23.4213407       0.139876318        -88.589987
   1.6500725e+009      0.134032988       -105.362279       0.952229772       -24.0052992       0.954475165       -23.9091774       0.144113914       -88.5924873
    1.680072e+009      0.137783801       -106.373503       0.952906973         -24.29085       0.955688546       -24.4912439       0.147952572       -90.2893251
   1.7100715e+009      0.140248319       -106.660918       0.952153031       -24.9282746       0.954331616       -24.9668468       0.150935739       -90.4452139
    1.740071e+009      0.145333373        -108.24154       0.954166419       -25.3830563       0.951551008       -25.6516245       0.156475772       -90.5566122
   1.7700705e+009      0.148723713       -109.419882       0.953238956       -26.1261117       0.951374367       -26.0913779       0.159854853       -91.6328968
     1.80007e+009      0.152483167       -109.573041       0.951712115       -26.4917894       0.947767462       -26.6037722       0.162408294       -92.2308856
   1.8300695e+009      0.154292628       -111.429959       0.950467162       -26.9348027       0.950611009       -26.9417194       0.165603882       -92.9602459
    1.860069e+009      0.162553776       -113.829569        0.94719507       -27.6178938       0.948217219        -27.432234       0.173208466       -94.9801062
   1.8900685e+009      0.161329652       -115.545258       0.943549377       -27.8018123       0.946973738       -27.8264481       0.170336035       -96.1969142
    1.920068e+009      0.163305773       -115.386248       0.946541427        -28.370321       0.947872795       -28.3717122       0.173391068       -96.0129907
   1.9500675e+009      0.166148256       -116.420191       0.947683299       -28.9784162       0.947231268       -29.0542626       0.177519029       -95.8855664
    1.980067e+009      0.171861019       -118.001206       0.944537709        -29.530731       0.946013624       -29.5759191       0.181333369       -97.0552904
   2.0100665e+009      0.175377403       -117.968297       0.946503811       -29.9827512       0.941809168       -29.9734933       0.185313023       -96.9609919
    2.040066e+009      0.177461993       -119.328336       0.943056144       -30.5738888       0.941429205       -30.6206831       0.188439619       -98.0242107
   2.0700655e+009        0.1793263       -121.079972       0.940953916       -31.1331834       0.940537818       -30.9624265       0.190301012        -98.237676
    2.100065e+009      0.183929798       -121.725057       0.939216136       -31.5002344       0.941258083       -31.5282927       0.194399438       -98.4630742
   2.1300645e+009      0.186924224       -121.892672       0.937032541       -32.0492095       0.939057702       -31.8618623       0.197799169       -99.2222062
    2.160064e+009      0.188539341       -123.211479       0.938003899       -32.6089309       0.939982375       -32.5721045       0.200323666       -99.5789447
   2.1900635e+009      0.194831837       -124.713982       0.935736729       -33.0587332       0.938693269       -33.1482628       0.207290369        -100.17985
    2.220063e+009      0.198828469       -125.199958        0.93918332       -33.6869709       0.937932966       -33.6491843       0.210255835       -100.474773
   2.2500625e+009      0.201956073       -126.074167       0.937746095       -34.1539273       0.935631325       -34.3645856       0.213482233       -101.565014
    2.280062e+009      0.203176988       -127.104499       0.934933056       -34.8325239       0.934222639       -34.8563021       0.217738583       -101.701741
   2.3100615e+009      0.208920201       -128.507161        0.93392251       -35.3569514        0.93198749       -35.2288498        0.22216009       -102.105647
    2.340061e+009      0.213345435       -128.847236       0.931875619       -35.8892883       0.932532016       -35.8705483       0.226086378       -102.621896
   2.3700605e+009      0.214137381       -129.824255       0.928259242        -36.382917       0.929058881       -36.2563703       0.228017945       -103.602404
     2.40006e+009      0.218270346       -131.166718       0.926593237        -37.006195       0.930338444       -36.9114725       0.234111224       -103.789512
   2.4300595e+009       0.22344815       -132.152023       0.926914423       -37.5241958       0.929729598       -37.5427503       0.238711777       -104.047703
    2.460059e+009       0.22798705       -132.202937         0.9264991       -38.0573428       0.927054996       -38.1789127       0.242347759       -104.899637
   2.4900585e+009      0.229641218       -133.229508       0.926122567       -38.6462696       0.926893941       -38.7692267       0.246449422       -105.727494
    2.520058e+009      0.232923083       -134.648914       0.924429811       -39.3592905        0.92343119       -39.4507794       0.251322101       -106.075089
   2.5500575e+009      0.239974926       -135.365746       0.921330328       -39.9266081       0.921423949       -39.9577116       0.256411234       -106.567322
    2.580057e+009      0.243107581       -135.994716       0.921392891       -40.4282652       0.919021124       -40.2932975       0.260338881       -107.293117
   2.6100565e+009      0.244448667       -136.966088       0.916205486       -41.2302081       0.917429994       -41.1020795       0.264476453       -107.870366
    2.640056e+009      0.248848065       -138.239561       0.912855209       -41.5633476       0.917177683       -41.4234928        0.26964418       -108.122368
   2.6700555e+009      0.255051061       -138.992324       0.912922632       -42.2999415       0.914656584        -42.347407       0.273266615       -108.961473
    2.700055e+009      0.257640577        -139.15514       0.910245935       -42.8093651       0.914511835       -42.9086452       0.278641963       -109.996583
   2.7300545e+009      0.261009234       -140.481249       0.909707977        -43.307558       0.912486266       -43.4831936        0.28455692       -110.402167
    2.760054e+009      0.266617062       -141.395973       0.910877333       -43.9585763       0.910740992       -44.3726506       0.289677474       -110.715332
   2.7900535e+009      0.272111257       -142.068721       0.905016937       -44.6242985       0.902818318       -44.8135808       0.293380365       -111.893109
    2.820053e+009      0.273577877       -142.658393       0.905008592       -45.2534741       0.905065064       -45.3680193       0.298125689       -112.590529
   2.8500525e+009      0.277221591       -144.222827       0.899862692       -45.8751168       0.901670763       -45.8304356       0.303411487       -112.987102
    2.880052e+009      0.284092905       -145.058673       0.896749611        -46.516309       0.897210784       -46.5868008       0.308692465       -113.782944
   2.9100515e+009      0.286803663       -145.294665       0.894346396       -47.1021172       0.899061183       -47.1298458       0.313084912       -114.699456
    2.940051e+009      0.289241953       -145.892306       0.890786803       -47.7347156       0.893936492        -47.922948       0.319878708       -115.171972
   2.9700505e+009      0.295203865       -147.595253       0.892344418       -48.2242731       0.892329773       -48.5515054        0.32409625       -115.940629
     3.00005e+009      0.301271259       -147.692547       0.886882081        -49.063339       0.887731712       -49.1866703       0.330733072       -116.332465
   3.0300495e+009      0.305186286       -148.448122       0.883596184       -49.6820948       0.883511007        -49.752409       0.336278181       -117.658986
    3.060049e+009      0.308000209       -149.753048       0.884112465       -50.3320835       0.884175866       -50.5470627       0.341217325       -118.387341
   3.0900485e+009      0.313505975       -150.977611       0.878413472         -50.98672       0.879404204       -51.0297072       0.347821238        -118.93301
    3.120048e+009      0.317908143       -151.310631       0.875561891       -51.5041832       0.874377521       -51.6520078       0.351006034       -119.942359
   3.1500475e+009      0.321955887         -151.7425       0.874525704       -52.3279585       0.874241367       -52.4647758       0.358309446       -120.647238
    3.180047e+009      0.326780812       -153.443613       0.871210251       -52.8395515       0.873195518       -53.1577861       0.364469121       -121.474971
   3.2100465e+009       0.33148271       -154.015422       0.865743824       -53.6255922       0.864901449       -53.8073129       0.370188693       -122.055637
    3.240046e+009      0.336568889       -154.563883       0.864305868       -54.3247814       0.863491092       -54.5673435       0.376224331       -123.217208
   3.2700455e+009      0.338504531        -155.51409       0.858567998       -54.8112935       0.858555655       -55.0260691       0.380973148       -123.793199
    3.300045e+009      0.344996957       -156.690226       0.856345434       -55.7083528       0.854636651       -55.8213931       0.389544121       -124.464889
   3.3300445e+009      0.350323172       -157.494232       0.853200092       -56.2654949       0.851021131       -56.4011697         0.3935352       -125.352976
    3.360044e+009      0.353324732       -157.921611       0.849541379       -56.9534449       0.848275355       -57.2030398       0.400733964       -126.231999
   3.3900435e+009      0.356549406       -159.058558       0.843063452        -57.669592       0.841946497       -57.7102834       0.406429098       -126.756214
    3.420043e+009      0.362130386       -160.345073       0.842413553       -58.5425712       0.841426316       -58.5927694       0.413506402       -127.549033
   3.4500425e+009       0.36845228       -160.829102       0.834811583       -59.2288508        0.83389608        -59.330392       0.420325165       -128.720681
    3.480042e+009      0.370895813       -161.706325       0.833838387       -59.7032959       0.830916146       -59.8112658       0.425231622       -129.576037
   3.5100415e+009      0.375694743       -163.101017       0.827686836       -60.4805634       0.826080085       -60.7728256       0.431765153         -130.1722
    3.540041e+009      0.381667727       -164.028537        0.82170899       -61.3639914       0.819745469       -61.2019457       0.438955518       -130.861456
   3.5700405e+009      0.385550688       -164.610842        0.81929143       -62.1510449       0.819438948       -62.1825935       0.444302024       -131.849457
     3.60004e+009      0.390301227        -165.75663       0.813803533       -62.6254004       0.810071628       -62.7547147       0.452233692       -132.761324
   3.6300395e+009      0.394754154       -167.160811       0.807045063        -63.525531       0.805469092        -63.464462       0.458258466       -133.477688
