<Qucs Dataset 0.0.19>
<indep frequency 190>
  +5.00000000000000000000e+07
  +6.56084656084656119347e+07
  +8.12169312169312238693e+07
  +9.68253968253968209028e+07
  +1.12433862433862432837e+08
  +1.28042328042328044772e+08
  +1.43650793650793641806e+08
  +1.59259259259259253740e+08
  +1.74867724867724865675e+08
  +1.90476190476190477610e+08
  +2.06084656084656089544e+08
  +2.21693121693121701479e+08
  +2.37301587301587283611e+08
  +2.52910052910052895546e+08
  +2.68518518518518507481e+08
  +2.84126984126984119415e+08
  +2.99735449735449731350e+08
  +3.15343915343915343285e+08
  +3.30952380952380955219e+08
  +3.46560846560846567154e+08
  +3.62169312169312179089e+08
  +3.77777777777777791023e+08
  +3.93386243386243402958e+08
  +4.08994708994709014893e+08
  +4.24603174603174567223e+08
  +4.40211640211640179157e+08
  +4.55820105820105791092e+08
  +4.71428571428571403027e+08
  +4.87037037037037014961e+08
  +5.02645502645502626896e+08
  +5.18253968253968238831e+08
  +5.33862433862433850765e+08
  +5.49470899470899462700e+08
  +5.65079365079365015030e+08
  +5.80687830687830686569e+08
  +5.96296296296296238899e+08
  +6.11904761904761910439e+08
  +6.27513227513227462769e+08
  +6.43121693121693134308e+08
  +6.58730158730158686638e+08
  +6.74338624338624358177e+08
  +6.89947089947089910507e+08
  +7.05555555555555582047e+08
  +7.21164021164021134377e+08
  +7.36772486772486805916e+08
  +7.52380952380952358246e+08
  +7.67989417989418029785e+08
  +7.83597883597883582115e+08
  +7.99206349206349134445e+08
  +8.14814814814814805984e+08
  +8.30423280423280358315e+08
  +8.46031746031746029854e+08
  +8.61640211640211582184e+08
  +8.77248677248677253723e+08
  +8.92857142857142806053e+08
  +9.08465608465608477592e+08
  +9.24074074074074029922e+08
  +9.39682539682539701462e+08
  +9.55291005291005253792e+08
  +9.70899470899470925331e+08
  +9.86507936507936477661e+08
  +1.00211640211640214920e+09
  +1.01772486772486770153e+09
  +1.03333333333333337307e+09
  +1.04894179894179892540e+09
  +1.06455026455026447773e+09
  +1.08015873015873003006e+09
  +1.09576719576719570160e+09
  +1.11137566137566137314e+09
  +1.12698412698412704468e+09
  +1.14259259259259247780e+09
  +1.15820105820105814934e+09
  +1.17380952380952382088e+09
  +1.18941798941798949242e+09
  +1.20502645502645492554e+09
  +1.22063492063492059708e+09
  +1.23624338624338626862e+09
  +1.25185185185185194016e+09
  +1.26746031746031737328e+09
  +1.28306878306878304482e+09
  +1.29867724867724871635e+09
  +1.31428571428571414948e+09
  +1.32989417989417982101e+09
  +1.34550264550264549255e+09
  +1.36111111111111116409e+09
  +1.37671957671957659721e+09
  +1.39232804232804226875e+09
  +1.40793650793650794029e+09
  +1.42354497354497361183e+09
  +1.43915343915343904495e+09
  +1.45476190476190471649e+09
  +1.47037037037037038803e+09
  +1.48597883597883605957e+09
  +1.50158730158730149269e+09
  +1.51719576719576716423e+09
  +1.53280423280423283577e+09
  +1.54841269841269826889e+09
  +1.56402116402116394043e+09
  +1.57962962962962961197e+09
  +1.59523809523809528351e+09
  +1.61084656084656071663e+09
  +1.62645502645502638817e+09
  +1.64206349206349205971e+09
  +1.65767195767195773125e+09
  +1.67328042328042316437e+09
  +1.68888888888888883591e+09
  +1.70449735449735450745e+09
  +1.72010582010582017899e+09
  +1.73571428571428561211e+09
  +1.75132275132275128365e+09
  +1.76693121693121695518e+09
  +1.78253968253968262672e+09
  +1.79814814814814805984e+09
  +1.81375661375661373138e+09
  +1.82936507936507940292e+09
  +1.84497354497354483604e+09
  +1.86058201058201050758e+09
  +1.87619047619047617912e+09
  +1.89179894179894185066e+09
  +1.90740740740740728378e+09
  +1.92301587301587295532e+09
  +1.93862433862433862686e+09
  +1.95423280423280429840e+09
  +1.96984126984126973152e+09
  +1.98544973544973540306e+09
  +2.00105820105820107460e+09
  +2.01666666666666674614e+09
  +2.03227513227513217926e+09
  +2.04788359788359785080e+09
  +2.06349206349206352234e+09
  +2.07910052910052895546e+09
  +2.09470899470899462700e+09
  +2.11031746031746029854e+09
  +2.12592592592592597008e+09
  +2.14153439153439140320e+09
  +2.15714285714285707474e+09
  +2.17275132275132274628e+09
  +2.18835978835978841782e+09
  +2.20396825396825408936e+09
  +2.21957671957671976089e+09
  +2.23518518518518495560e+09
  +2.25079365079365062714e+09
  +2.26640211640211629868e+09
  +2.28201058201058197021e+09
  +2.29761904761904764175e+09
  +2.31322751322751331329e+09
  +2.32883597883597898483e+09
  +2.34444444444444417953e+09
  +2.36005291005290985107e+09
  +2.37566137566137552261e+09
  +2.39126984126984119415e+09
  +2.40687830687830686569e+09
  +2.42248677248677253723e+09
  +2.43809523809523820877e+09
  +2.45370370370370388031e+09
  +2.46931216931216907501e+09
  +2.48492063492063474655e+09
  +2.50052910052910041809e+09
  +2.51613756613756608963e+09
  +2.53174603174603176117e+09
  +2.54735449735449743271e+09
  +2.56296296296296310425e+09
  +2.57857142857142829895e+09
  +2.59417989417989397049e+09
  +2.60978835978835964203e+09
  +2.62539682539682531357e+09
  +2.64100529100529098511e+09
  +2.65661375661375665665e+09
  +2.67222222222222232819e+09
  +2.68783068783068799973e+09
  +2.70343915343915319443e+09
  +2.71904761904761886597e+09
  +2.73465608465608453751e+09
  +2.75026455026455020905e+09
  +2.76587301587301588058e+09
  +2.78148148148148155212e+09
  +2.79708994708994722366e+09
  +2.81269841269841241837e+09
  +2.82830687830687808990e+09
  +2.84391534391534376144e+09
  +2.85952380952380943298e+09
  +2.87513227513227510452e+09
  +2.89074074074074077606e+09
  +2.90634920634920644760e+09
  +2.92195767195767211914e+09
  +2.93756613756613731384e+09
  +2.95317460317460298538e+09
  +2.96878306878306865692e+09
  +2.98439153439153432846e+09
  +3.00000000000000000000e+09
</indep>
<dep S11 frequency>
  -2.97345024062013507660e+01
  -2.97989087683122058081e+01
  -2.97174649923198010981e+01
  -2.96690390666775094530e+01
  -2.96585944162226553544e+01
  -2.95380270881394615401e+01
  -2.93206566163941282355e+01
  -2.92298714801670556085e+01
  -2.92198562529794472198e+01
  -2.91759107684204650468e+01
  -2.91130763352465820049e+01
  -2.90227509227383819734e+01
  -2.89229965685750975979e+01
  -2.87878143770982788396e+01
  -2.86372868058806453462e+01
  -2.85687138935958913066e+01
  -2.85057724859317005439e+01
  -2.84371077785437087471e+01
  -2.83563322247046478708e+01
  -2.82254720044776235000e+01
  -2.81031885403508070453e+01
  -2.80205857133373648082e+01
  -2.79078771217513441627e+01
  -2.77111242483967785688e+01
  -2.75506261848280118443e+01
  -2.74742907595252638941e+01
  -2.73886357182893078743e+01
  -2.72916616732441354998e+01
  -2.71726195826643888154e+01
  -2.70268774901441979353e+01
  -2.69007781291770982079e+01
  -2.67910057562195262904e+01
  -2.66164804858482817451e+01
  -2.64033278272798384023e+01
  -2.62693336593670103696e+01
  -2.61671909200350718550e+01
  -2.60292428315766741775e+01
  -2.58796213055915167445e+01
  -2.56787559127321358687e+01
  -2.54697766723664322797e+01
  -2.53367800338470985366e+01
  -2.52120767248739880984e+01
  -2.51080579831250574330e+01
  -2.50040745312061005734e+01
  -2.48936579768668053703e+01
  -2.47770727437303506235e+01
  -2.46547302060124415846e+01
  -2.45243221900079078068e+01
  -2.43675530728419715842e+01
  -2.42293567795116189245e+01
  -2.41264291046237389082e+01
  -2.39813885686405825481e+01
  -2.37755155911076272446e+01
  -2.35628606180800375114e+01
  -2.33414944069868504073e+01
  -2.32052736928874523414e+01
  -2.31383353671305798116e+01
  -2.30719660376474031693e+01
  -2.30059890150802317521e+01
  -2.28660498120756656704e+01
  -2.26905468768175992977e+01
  -2.24903924513170139221e+01
  -2.22878167950185996915e+01
  -2.21475019020695249594e+01
  -2.20193158058608240424e+01
  -2.19085849818912521414e+01
  -2.17950377157041366161e+01
  -2.17069221227293667198e+01
  -2.16056206378262416479e+01
  -2.13557494796345928023e+01
  -2.11351446346306133250e+01
  -2.10380274463780772010e+01
  -2.09446363073373156283e+01
  -2.08640297786042658856e+01
  -2.07674403502156970092e+01
  -2.06357060868036334966e+01
  -2.04933928505646250073e+01
  -2.03382561382363391544e+01
  -2.02047133282112625352e+01
  -2.00922828195714551214e+01
  -1.99860709020669915503e+01
  -1.98827731546158332776e+01
  -1.97071225854619811457e+01
  -1.94943117841447026706e+01
  -1.93890168550457921981e+01
  -1.93273395373040770551e+01
  -1.92625785499399100331e+01
  -1.91962090235232309965e+01
  -1.89834613225245050216e+01
  -1.87513963231044726854e+01
  -1.86605774066253573551e+01
  -1.85784056584211825225e+01
  -1.84601680344390146615e+01
  -1.83481909395193838463e+01
  -1.82839727064112267385e+01
  -1.82053075804968429452e+01
  -1.80685797421990876899e+01
  -1.79270188814856474835e+01
  -1.77691537204245335602e+01
  -1.76482016399322247935e+01
  -1.75966341710555838063e+01
  -1.75053363730675286547e+01
  -1.73596709924859844421e+01
  -1.72365035895516811593e+01
  -1.71353147699555528050e+01
  -1.70421118361838175304e+01
  -1.69556867587787465368e+01
  -1.68197283548699587641e+01
  -1.66576094050304277516e+01
  -1.65373011832120866416e+01
  -1.64329953488921454152e+01
  -1.63276900812322907086e+01
  -1.62233078962091639141e+01
  -1.61573950479665526814e+01
  -1.60946585255815506343e+01
  -1.58528710729241151256e+01
  -1.56159607980960117857e+01
  -1.56916160007378842067e+01
  -1.57497155912892949914e+01
  -1.56805869416618275380e+01
  -1.56098346012182194187e+01
  -1.55299197278213245710e+01
  -1.54338459266065246567e+01
  -1.52930631892887518575e+01
  -1.51661938587735285466e+01
  -1.50653287750786368804e+01
  -1.49808779625183028372e+01
  -1.49165951029274150841e+01
  -1.48574229596954836552e+01
  -1.48031435029213334076e+01
  -1.47163823023074122887e+01
  -1.46075244833939699163e+01
  -1.45145886288588688018e+01
  -1.44302582095631244385e+01
  -1.43909830096115936016e+01
  -1.43670709627462667157e+01
  -1.42423943779751187577e+01
  -1.40957083723698612943e+01
  -1.39968480436765059238e+01
  -1.39047433520918168881e+01
  -1.38229501384260515806e+01
  -1.37429724551394158993e+01
  -1.37013457413208143976e+01
  -1.36510391882985828715e+01
  -1.35418762241998518192e+01
  -1.34330539163407358672e+01
  -1.33268269171211866109e+01
  -1.32469888509428344037e+01
  -1.32311059837804911865e+01
  -1.31902801393895519055e+01
  -1.31060064670757903116e+01
  -1.30159252521324138030e+01
  -1.29190151820347924883e+01
  -1.28224455428439281235e+01
  -1.27267037188724003727e+01
  -1.26579312774236036887e+01
  -1.26068969988940544624e+01
  -1.25535597489547861016e+01
  -1.24978693211066893554e+01
  -1.23906448415713903444e+01
  -1.22679411039859971311e+01
  -1.21961963386955538624e+01
  -1.21349882791334628962e+01
  -1.20895560452404566831e+01
  -1.20454904435824143860e+01
  -1.19707282613920629188e+01
  -1.18927111485184902051e+01
  -1.17827513214891475002e+01
  -1.16823975010262728347e+01
  -1.16355779325595634077e+01
  -1.15852933817444423426e+01
  -1.15211741095595847639e+01
  -1.14525241850819661238e+01
  -1.13743538185138213237e+01
  -1.12931352738430881288e+01
  -1.12069051168839841637e+01
  -1.11405307380433207243e+01
  -1.10977578318111635980e+01
  -1.10458510246389423060e+01
  -1.09849691868006047457e+01
  -1.09009243773996935545e+01
  -1.08028334762476525555e+01
  -1.07417655416519419731e+01
  -1.06977263710904608729e+01
  -1.06520495719823387049e+01
  -1.06058802779435996655e+01
  -1.05379331234362041414e+01
  -1.04648759910123665406e+01
  -1.03842144278508854427e+01
  -1.03038428331793205928e+01
</dep>
<dep S21 frequency>
  -1.05640054087607655475e+01
  -1.05615282393122473792e+01
  -1.05611528730821433442e+01
  -1.05672213599069060308e+01
  -1.05819245900161682528e+01
  -1.05833408330141747200e+01
  -1.05719046124135225284e+01
  -1.05644653238151420283e+01
  -1.05597338120076820189e+01
  -1.05580789083151653784e+01
  -1.05578562138244347324e+01
  -1.05595882369219147279e+01
  -1.05618356548249341387e+01
  -1.05676784990913308349e+01
  -1.05741036605431286688e+01
  -1.05762748530836709904e+01
  -1.05778084115155444067e+01
  -1.05783292085142743844e+01
  -1.05786552627965040330e+01
  -1.05808919296359409401e+01
  -1.05823051558564351637e+01
  -1.05794953993513036750e+01
  -1.05791583402936506531e+01
  -1.05888080449351367207e+01
  -1.05948784759600798111e+01
  -1.05925581663610834937e+01
  -1.05908254806273642856e+01
  -1.05902833306215189424e+01
  -1.05948544491266396506e+01
  -1.06058109605078882964e+01
  -1.06123752844888947777e+01
  -1.06149799961587820718e+01
  -1.06074990768452188661e+01
  -1.05931137819517058318e+01
  -1.05920911005255575787e+01
  -1.05973556545616141022e+01
  -1.06030320955805574812e+01
  -1.06086596885407917767e+01
  -1.06116856547179843062e+01
  -1.06138935769277598098e+01
  -1.06074220291894221191e+01
  -1.05999375564814037887e+01
  -1.06045373204184762983e+01
  -1.06089074263062705938e+01
  -1.06121511027808956840e+01
  -1.06142144785078311742e+01
  -1.06106017954836104877e+01
  -1.06108900723173142921e+01
  -1.06249479858254520792e+01
  -1.06320060849138720016e+01
  -1.06233956466004908492e+01
  -1.06191474298129229226e+01
  -1.06222298266776782327e+01
  -1.06290506566146110146e+01
  -1.06403144342139519551e+01
  -1.06471047578251170052e+01
  -1.06500083246015400107e+01
  -1.06522866702481096013e+01
  -1.06540358558810037692e+01
  -1.06591779154716359557e+01
  -1.06655887745037087910e+01
  -1.06621523028818909751e+01
  -1.06556547221135389236e+01
  -1.06544233518843523001e+01
  -1.06539540583298872889e+01
  -1.06642568008574141203e+01
  -1.06750574728951619363e+01
  -1.06822416538477042991e+01
  -1.06881034305343014523e+01
  -1.06811149019453477393e+01
  -1.06775349857706114420e+01
  -1.06936204897998194951e+01
  -1.07031922765640974404e+01
  -1.06924425381701393434e+01
  -1.06889106179119153239e+01
  -1.07012660219196060751e+01
  -1.07077658206868786550e+01
  -1.07053852777811453478e+01
  -1.07077629388520243481e+01
  -1.07155323050898623194e+01
  -1.07156944641534224161e+01
  -1.07096062038925197157e+01
  -1.07121567521952201218e+01
  -1.07198058831247813316e+01
  -1.07230065027686265466e+01
  -1.07240269416313225292e+01
  -1.07184807558469827882e+01
  -1.07110772736845696329e+01
  -1.07343150361731396458e+01
  -1.07620162429084267330e+01
  -1.07627331460814783526e+01
  -1.07616366737312780799e+01
  -1.07679301164997873741e+01
  -1.07737186444993771062e+01
  -1.07777912098886758940e+01
  -1.07821608649561504478e+01
  -1.07886263375621194172e+01
  -1.07962403987519568460e+01
  -1.08079410822135564274e+01
  -1.08205620634702874838e+01
  -1.08351856142463311983e+01
  -1.08350255687407006633e+01
  -1.08139713414272460312e+01
  -1.08147805002891335135e+01
  -1.08385189493718119280e+01
  -1.08462238046139258785e+01
  -1.08414893606502449330e+01
  -1.08554592010755683873e+01
  -1.08798012082917505694e+01
  -1.08745942699146542765e+01
  -1.08574156293558878872e+01
  -1.08739305497431288927e+01
  -1.08988774480024819269e+01
  -1.08980822908815628836e+01
  -1.08932603600171340474e+01
  -1.08931167636402044252e+01
  -1.08942738508266767639e+01
  -1.09392053023418451829e+01
  -1.09775792521772590504e+01
  -1.09639073403565401321e+01
  -1.09556507594260530425e+01
  -1.09717152979362602139e+01
  -1.09811858818175185348e+01
  -1.09732402997106106568e+01
  -1.09782802544223478947e+01
  -1.10085857233173456393e+01
  -1.10286220474894509636e+01
  -1.10341814234568680320e+01
  -1.10384077984060446909e+01
  -1.10416869178906935645e+01
  -1.10531708589512938090e+01
  -1.10703203176263436092e+01
  -1.10787423459622775823e+01
  -1.10826487824102493107e+01
  -1.10939743569665711931e+01
  -1.11074223772725737547e+01
  -1.11235778159078417815e+01
  -1.11401932444768814179e+01
  -1.11469030382958464998e+01
  -1.11521582458997379206e+01
  -1.11532958281365974784e+01
  -1.11546695029322542325e+01
  -1.11759618117034946749e+01
  -1.11955817672135875540e+01
  -1.12060295338647755159e+01
  -1.12142422211554269040e+01
  -1.12148054871665809884e+01
  -1.12280337387344868461e+01
  -1.12746498098736207538e+01
  -1.13053647233105252212e+01
  -1.13077671385429354700e+01
  -1.13123968730742578970e+01
  -1.13200701661928722075e+01
  -1.13304822983387296631e+01
  -1.13434503866243474590e+01
  -1.13577353870513562129e+01
  -1.13728933039683628436e+01
  -1.13875759915364156427e+01
  -1.14014637874492663627e+01
  -1.14229153994105203651e+01
  -1.14467898427424472629e+01
  -1.14619790629567841478e+01
  -1.14749550304762415465e+01
  -1.14914591657626061760e+01
  -1.15077626983442744546e+01
  -1.15439818924460819716e+01
  -1.15777067880911666009e+01
  -1.15728146651921903754e+01
  -1.15755590223986022380e+01
  -1.16299352678176060039e+01
  -1.16706033022655297771e+01
  -1.16621654816045356995e+01
  -1.16639992014479751958e+01
  -1.16907833944912535884e+01
  -1.17245210775555150917e+01
  -1.17704853198022814098e+01
  -1.17941878699374100847e+01
  -1.17908793433834535591e+01
  -1.18097831439255145369e+01
  -1.18483768461537728456e+01
  -1.18778105998163212575e+01
  -1.19010337559662655593e+01
  -1.19222740215523757001e+01
  -1.19422669919600039634e+01
  -1.19792800599114723781e+01
  -1.20212677984780498264e+01
  -1.20408083715340055164e+01
  -1.20558234937479582527e+01
  -1.20977974557988119386e+01
  -1.21414851025777323912e+01
</dep>
<dep Rn frequency>
  +1.41953329694685095319e+02
  +1.41813708088962755482e+02
  +1.41793679474270504670e+02
  +1.41889158208783157988e+02
  +1.42139543051648814753e+02
  +1.42212632969220123869e+02
  +1.42113638767642413541e+02
  +1.42033829350711613415e+02
  +1.41967103754416228867e+02
  +1.41985838883897656615e+02
  +1.42045297084161262546e+02
  +1.42065829713101010157e+02
  +1.42070647731611899189e+02
  +1.42135408070129301450e+02
  +1.42210299440814708305e+02
  +1.42296496089225144033e+02
  +1.42381169013682608693e+02
  +1.42195595878428605374e+02
  +1.42023699601783221169e+02
  +1.42228617262771308560e+02
  +1.42383076756163177379e+02
  +1.42222377269290689128e+02
  +1.42143170478312811156e+02
  +1.42377736455385104364e+02
  +1.42501291794344666641e+02
  +1.42356924989039811180e+02
  +1.42226501996726710786e+02
  +1.42123444036288759662e+02
  +1.42136074580468687145e+02
  +1.42292818877830001156e+02
  +1.42358461537597236202e+02
  +1.42341697667372216074e+02
  +1.42337692714977890773e+02
  +1.42339129335592957659e+02
  +1.42181493276599866249e+02
  +1.41947482852207770065e+02
  +1.41888749993495395074e+02
  +1.41885142269541546511e+02
  +1.41981790681244490315e+02
  +1.42093340514234881766e+02
  +1.42007070765685170954e+02
  +1.41900203434004680503e+02
  +1.41956193653692963608e+02
  +1.41988324035714441607e+02
  +1.41745601022997647078e+02
  +1.41509842913905060868e+02
  +1.41321966254869238355e+02
  +1.41218409700505844739e+02
  +1.41411393626752129649e+02
  +1.41474642494898631639e+02
  +1.41242945887170577635e+02
  +1.41058020117865510201e+02
  +1.40954674642538975604e+02
  +1.40933155816715242281e+02
  +1.41008507765776442966e+02
  +1.41032817955667979959e+02
  +1.41011997571825759223e+02
  +1.40898454819445618114e+02
  +1.40724985283425155558e+02
  +1.40543602260692921391e+02
  +1.40355061161693640770e+02
  +1.40215844484125085501e+02
  +1.40091375426820974326e+02
  +1.40049613099728333054e+02
  +1.40019013649984174208e+02
  +1.39761568698544493827e+02
  +1.39483517340701780540e+02
  +1.39482596122596817168e+02
  +1.39458860858257992277e+02
  +1.39204092302630556333e+02
  +1.39015504928015872110e+02
  +1.39191554594992396687e+02
  +1.39220106999268466552e+02
  +1.38787701866504278314e+02
  +1.38446344226484143292e+02
  +1.38300722520646331759e+02
  +1.38244387931806699044e+02
  +1.38327069539564178058e+02
  +1.38099229699465183785e+02
  +1.37528566203091116904e+02
  +1.37064196660027903363e+02
  +1.36684834996830716136e+02
  +1.36475147167695865846e+02
  +1.36365941256188079933e+02
  +1.36377472992360679882e+02
  +1.36435316819032919966e+02
  +1.36177920454465350986e+02
  +1.35833391606773346894e+02
  +1.35681586571227825289e+02
  +1.35556125577268261395e+02
  +1.35429274690661344493e+02
  +1.35297808788591112261e+02
